
Note: No compatibility mode selected!


Circuit: TB1: Blink Code Read Verification

Doing analysis at TEMP = 27.000000 and TNOM = 27.000000

Using SPARSE 1.3 as Direct Linear Solver
Operating point simulation skipped by 'uic',
  now using transient initial conditions.

No. of Data Rows : 50238

  Measurements for Transient Analysis

v_mcu_idle          =  6.287411e-02 from=  0.000000e+00 to=  4.000989e-01
v_mcu_blink1_peak   =  3.309370e+00 at=  5.002470e-01
v_mcu_blink2_peak   =  3.299989e+00 at=  1.699823e+00
v_mcu_blink3_peak   =  3.308658e+00 at=  2.100233e+00
t_rise              =  3.086530e-05 targ=  5.002143e-01 trig=  5.001835e-01
t_fall              =  -9.017592e-01 targ=  1.009624e-06 trig=  9.017603e-01


The file "results/tb1_blink_read.ps" may be printed on a postscript printer.
                       TB1: Blink Code Read Verification
                       Transient Analysis  Sat Mar 21 23:09:37  2026
--------------------------------------------------------------------------------
Index   time            v(diag_pin)     v(mcu_gpio)     
--------------------------------------------------------------------------------
0	1.000000e-06	6.360450e+00	3.382755e-01	
1	1.015161e-06	6.450347e+00	3.233190e-01	
2	1.045482e-06	6.617761e+00	2.867322e-01	
3	1.078382e-06	6.773457e+00	2.437504e-01	
4	1.116054e-06	6.923584e+00	1.971143e-01	
5	1.155309e-06	7.053189e+00	1.532808e-01	
6	1.223435e-06	7.227518e+00	1.114675e-01	
7	1.308588e-06	7.377848e+00	9.426734e-02	
8	1.425804e-06	7.505214e+00	8.737891e-02	
9	1.560064e-06	7.583576e+00	8.417266e-02	
10	1.722877e-06	7.629235e+00	8.146571e-02	
11	1.895049e-06	7.649689e+00	7.905549e-02	
12	2.170804e-06	7.661018e+00	7.606907e-02	
13	2.457461e-06	7.663274e+00	7.365907e-02	
14	3.030775e-06	7.663836e+00	7.028552e-02	
15	3.805029e-06	7.663731e+00	6.753836e-02	
16	5.353536e-06	7.663770e+00	6.481035e-02	
17	8.450551e-06	7.663744e+00	6.308880e-02	
18	1.204384e-05	7.663764e+00	6.290078e-02	
19	1.754694e-05	7.663748e+00	6.285556e-02	
20	2.578515e-05	7.663762e+00	6.288853e-02	
21	4.226158e-05	7.663749e+00	6.285943e-02	
22	7.521443e-05	7.663762e+00	6.288812e-02	
23	1.000000e-04	7.663749e+00	6.285978e-02	
24	1.065906e-04	7.663755e+00	6.287381e-02	
25	1.197717e-04	7.663756e+00	6.287400e-02	
26	1.461340e-04	7.663755e+00	6.287385e-02	
27	1.988586e-04	7.663756e+00	6.287399e-02	
28	2.988586e-04	7.663755e+00	6.287385e-02	
29	3.988586e-04	7.663756e+00	6.287399e-02	
30	4.988586e-04	7.663755e+00	6.287385e-02	
31	5.988586e-04	7.663756e+00	6.287399e-02	
32	6.988586e-04	7.663755e+00	6.287386e-02	
33	7.988586e-04	7.663756e+00	6.287399e-02	
34	8.988586e-04	7.663755e+00	6.287386e-02	
35	9.988586e-04	7.663756e+00	6.287398e-02	
36	1.098859e-03	7.663755e+00	6.287386e-02	
37	1.198859e-03	7.663756e+00	6.287398e-02	
38	1.298859e-03	7.663755e+00	6.287386e-02	
39	1.398859e-03	7.663756e+00	6.287398e-02	
40	1.498859e-03	7.663755e+00	6.287386e-02	
41	1.598859e-03	7.663756e+00	6.287398e-02	
42	1.698859e-03	7.663755e+00	6.287386e-02	
43	1.798859e-03	7.663756e+00	6.287398e-02	
44	1.898859e-03	7.663755e+00	6.287387e-02	
45	1.998859e-03	7.663756e+00	6.287398e-02	
46	2.098859e-03	7.663755e+00	6.287387e-02	
47	2.198859e-03	7.663756e+00	6.287398e-02	
48	2.298859e-03	7.663755e+00	6.287387e-02	
49	2.398859e-03	7.663756e+00	6.287398e-02	
50	2.498859e-03	7.663755e+00	6.287387e-02	
51	2.598859e-03	7.663756e+00	6.287397e-02	
52	2.698859e-03	7.663755e+00	6.287387e-02	
53	2.798859e-03	7.663756e+00	6.287397e-02	
54	2.898859e-03	7.663755e+00	6.287387e-02	

Index   time            v(diag_pin)     v(mcu_gpio)     
--------------------------------------------------------------------------------
55	2.998859e-03	7.663756e+00	6.287397e-02	
56	3.098859e-03	7.663755e+00	6.287387e-02	
57	3.198859e-03	7.663756e+00	6.287397e-02	
58	3.298859e-03	7.663755e+00	6.287387e-02	
59	3.398859e-03	7.663756e+00	6.287397e-02	
60	3.498859e-03	7.663755e+00	6.287387e-02	
61	3.598859e-03	7.663756e+00	6.287397e-02	
62	3.698859e-03	7.663755e+00	6.287387e-02	
63	3.798859e-03	7.663756e+00	6.287397e-02	
64	3.898859e-03	7.663755e+00	6.287387e-02	
65	3.998859e-03	7.663756e+00	6.287397e-02	
66	4.098859e-03	7.663755e+00	6.287387e-02	
67	4.198859e-03	7.663756e+00	6.287397e-02	
68	4.298859e-03	7.663755e+00	6.287387e-02	
69	4.398859e-03	7.663756e+00	6.287397e-02	
70	4.498859e-03	7.663755e+00	6.287387e-02	
71	4.598859e-03	7.663756e+00	6.287397e-02	
72	4.698859e-03	7.663755e+00	6.287387e-02	
73	4.798859e-03	7.663756e+00	6.287397e-02	
74	4.898859e-03	7.663755e+00	6.287387e-02	
75	4.998859e-03	7.663756e+00	6.287397e-02	
76	5.098859e-03	7.663755e+00	6.287387e-02	
77	5.198859e-03	7.663756e+00	6.287397e-02	
78	5.298859e-03	7.663755e+00	6.287387e-02	
79	5.398859e-03	7.663756e+00	6.287397e-02	
80	5.498859e-03	7.663755e+00	6.287387e-02	
81	5.598859e-03	7.663756e+00	6.287397e-02	
82	5.698859e-03	7.663755e+00	6.287387e-02	
83	5.798859e-03	7.663756e+00	6.287397e-02	
84	5.898859e-03	7.663755e+00	6.287387e-02	
85	5.998859e-03	7.663756e+00	6.287397e-02	
86	6.098859e-03	7.663755e+00	6.287387e-02	
87	6.198859e-03	7.663756e+00	6.287397e-02	
88	6.298859e-03	7.663755e+00	6.287387e-02	
89	6.398859e-03	7.663756e+00	6.287397e-02	
90	6.498859e-03	7.663755e+00	6.287387e-02	
91	6.598859e-03	7.663756e+00	6.287397e-02	
92	6.698859e-03	7.663755e+00	6.287387e-02	
93	6.798859e-03	7.663756e+00	6.287397e-02	
94	6.898859e-03	7.663755e+00	6.287387e-02	
95	6.998859e-03	7.663756e+00	6.287397e-02	
96	7.098859e-03	7.663755e+00	6.287388e-02	
97	7.198859e-03	7.663756e+00	6.287397e-02	
98	7.298859e-03	7.663755e+00	6.287388e-02	
99	7.398859e-03	7.663756e+00	6.287397e-02	
100	7.498859e-03	7.663755e+00	6.287388e-02	
101	7.598859e-03	7.663756e+00	6.287397e-02	
102	7.698859e-03	7.663755e+00	6.287388e-02	
103	7.798859e-03	7.663756e+00	6.287397e-02	
104	7.898859e-03	7.663755e+00	6.287388e-02	
105	7.998859e-03	7.663756e+00	6.287397e-02	
106	8.098859e-03	7.663755e+00	6.287388e-02	
107	8.198859e-03	7.663756e+00	6.287397e-02	
108	8.298859e-03	7.663755e+00	6.287388e-02	
109	8.398859e-03	7.663756e+00	6.287397e-02	
110	8.498859e-03	7.663755e+00	6.287388e-02	
111	8.598859e-03	7.663756e+00	6.287397e-02	
112	8.698859e-03	7.663755e+00	6.287388e-02	

Index   time            v(diag_pin)     v(mcu_gpio)     
--------------------------------------------------------------------------------
113	8.798859e-03	7.663756e+00	6.287397e-02	
114	8.898859e-03	7.663755e+00	6.287388e-02	
115	8.998859e-03	7.663756e+00	6.287397e-02	
116	9.098859e-03	7.663755e+00	6.287388e-02	
117	9.198859e-03	7.663756e+00	6.287397e-02	
118	9.298859e-03	7.663755e+00	6.287388e-02	
119	9.398859e-03	7.663756e+00	6.287396e-02	
120	9.498859e-03	7.663755e+00	6.287388e-02	
121	9.598859e-03	7.663756e+00	6.287396e-02	
122	9.698859e-03	7.663755e+00	6.287388e-02	
123	9.798859e-03	7.663756e+00	6.287396e-02	
124	9.898859e-03	7.663755e+00	6.287388e-02	
125	9.998859e-03	7.663756e+00	6.287396e-02	
126	1.009886e-02	7.663755e+00	6.287388e-02	
127	1.019886e-02	7.663756e+00	6.287396e-02	
128	1.029886e-02	7.663755e+00	6.287388e-02	
129	1.039886e-02	7.663756e+00	6.287396e-02	
130	1.049886e-02	7.663755e+00	6.287388e-02	
131	1.059886e-02	7.663756e+00	6.287396e-02	
132	1.069886e-02	7.663755e+00	6.287388e-02	
133	1.079886e-02	7.663756e+00	6.287396e-02	
134	1.089886e-02	7.663755e+00	6.287388e-02	
135	1.099886e-02	7.663756e+00	6.287396e-02	
136	1.109886e-02	7.663755e+00	6.287388e-02	
137	1.119886e-02	7.663756e+00	6.287396e-02	
138	1.129886e-02	7.663755e+00	6.287388e-02	
139	1.139886e-02	7.663756e+00	6.287396e-02	
140	1.149886e-02	7.663755e+00	6.287388e-02	
141	1.159886e-02	7.663756e+00	6.287396e-02	
142	1.169886e-02	7.663755e+00	6.287388e-02	
143	1.179886e-02	7.663756e+00	6.287396e-02	
144	1.189886e-02	7.663755e+00	6.287388e-02	
145	1.199886e-02	7.663756e+00	6.287396e-02	
146	1.209886e-02	7.663755e+00	6.287388e-02	
147	1.219886e-02	7.663756e+00	6.287396e-02	
148	1.229886e-02	7.663755e+00	6.287388e-02	
149	1.239886e-02	7.663756e+00	6.287396e-02	
150	1.249886e-02	7.663755e+00	6.287388e-02	
151	1.259886e-02	7.663756e+00	6.287396e-02	
152	1.269886e-02	7.663755e+00	6.287388e-02	
153	1.279886e-02	7.663756e+00	6.287396e-02	
154	1.289886e-02	7.663755e+00	6.287388e-02	
155	1.299886e-02	7.663756e+00	6.287396e-02	
156	1.309886e-02	7.663755e+00	6.287388e-02	
157	1.319886e-02	7.663756e+00	6.287396e-02	
158	1.329886e-02	7.663755e+00	6.287388e-02	
159	1.339886e-02	7.663756e+00	6.287396e-02	
160	1.349886e-02	7.663755e+00	6.287388e-02	
161	1.359886e-02	7.663756e+00	6.287396e-02	
162	1.369886e-02	7.663755e+00	6.287388e-02	
163	1.379886e-02	7.663756e+00	6.287396e-02	
164	1.389886e-02	7.663755e+00	6.287388e-02	
165	1.399886e-02	7.663756e+00	6.287396e-02	
166	1.409886e-02	7.663755e+00	6.287388e-02	
167	1.419886e-02	7.663756e+00	6.287396e-02	
168	1.429886e-02	7.663755e+00	6.287388e-02	
169	1.439886e-02	7.663756e+00	6.287396e-02	
170	1.449886e-02	7.663755e+00	6.287388e-02	

Index   time            v(diag_pin)     v(mcu_gpio)     
--------------------------------------------------------------------------------
171	1.459886e-02	7.663756e+00	6.287396e-02	
172	1.469886e-02	7.663755e+00	6.287388e-02	
173	1.479886e-02	7.663756e+00	6.287396e-02	
174	1.489886e-02	7.663755e+00	6.287388e-02	
175	1.499886e-02	7.663756e+00	6.287396e-02	
176	1.509886e-02	7.663755e+00	6.287388e-02	
177	1.519886e-02	7.663756e+00	6.287396e-02	
178	1.529886e-02	7.663755e+00	6.287388e-02	
179	1.539886e-02	7.663756e+00	6.287396e-02	
180	1.549886e-02	7.663755e+00	6.287388e-02	
181	1.559886e-02	7.663756e+00	6.287396e-02	
182	1.569886e-02	7.663755e+00	6.287388e-02	
183	1.579886e-02	7.663756e+00	6.287396e-02	
184	1.589886e-02	7.663755e+00	6.287388e-02	
185	1.599886e-02	7.663756e+00	6.287396e-02	
186	1.609886e-02	7.663755e+00	6.287388e-02	
187	1.619886e-02	7.663756e+00	6.287396e-02	
188	1.629886e-02	7.663755e+00	6.287388e-02	
189	1.639886e-02	7.663756e+00	6.287396e-02	
190	1.649886e-02	7.663755e+00	6.287388e-02	
191	1.659886e-02	7.663756e+00	6.287396e-02	
192	1.669886e-02	7.663755e+00	6.287388e-02	
193	1.679886e-02	7.663756e+00	6.287396e-02	
194	1.689886e-02	7.663755e+00	6.287388e-02	
195	1.699886e-02	7.663756e+00	6.287396e-02	
196	1.709886e-02	7.663755e+00	6.287388e-02	
197	1.719886e-02	7.663756e+00	6.287396e-02	
198	1.729886e-02	7.663755e+00	6.287388e-02	
199	1.739886e-02	7.663756e+00	6.287396e-02	
200	1.749886e-02	7.663755e+00	6.287388e-02	
201	1.759886e-02	7.663756e+00	6.287396e-02	
202	1.769886e-02	7.663755e+00	6.287388e-02	
203	1.779886e-02	7.663756e+00	6.287396e-02	
204	1.789886e-02	7.663755e+00	6.287388e-02	
205	1.799886e-02	7.663756e+00	6.287396e-02	
206	1.809886e-02	7.663755e+00	6.287388e-02	
207	1.819886e-02	7.663756e+00	6.287396e-02	
208	1.829886e-02	7.663755e+00	6.287389e-02	
209	1.839886e-02	7.663756e+00	6.287396e-02	
210	1.849886e-02	7.663755e+00	6.287389e-02	
211	1.859886e-02	7.663756e+00	6.287396e-02	
212	1.869886e-02	7.663755e+00	6.287389e-02	
213	1.879886e-02	7.663756e+00	6.287396e-02	
214	1.889886e-02	7.663755e+00	6.287389e-02	
215	1.899886e-02	7.663756e+00	6.287396e-02	
216	1.909886e-02	7.663755e+00	6.287389e-02	
217	1.919886e-02	7.663756e+00	6.287396e-02	
218	1.929886e-02	7.663755e+00	6.287389e-02	
219	1.939886e-02	7.663756e+00	6.287396e-02	
220	1.949886e-02	7.663755e+00	6.287389e-02	
221	1.959886e-02	7.663756e+00	6.287396e-02	
222	1.969886e-02	7.663755e+00	6.287389e-02	
223	1.979886e-02	7.663756e+00	6.287396e-02	
224	1.989886e-02	7.663755e+00	6.287389e-02	
225	1.999886e-02	7.663756e+00	6.287396e-02	
226	2.009886e-02	7.663755e+00	6.287389e-02	
227	2.019886e-02	7.663756e+00	6.287396e-02	
228	2.029886e-02	7.663755e+00	6.287389e-02	

Index   time            v(diag_pin)     v(mcu_gpio)     
--------------------------------------------------------------------------------
229	2.039886e-02	7.663756e+00	6.287396e-02	
230	2.049886e-02	7.663755e+00	6.287389e-02	
231	2.059886e-02	7.663756e+00	6.287396e-02	
232	2.069886e-02	7.663755e+00	6.287389e-02	
233	2.079886e-02	7.663756e+00	6.287396e-02	
234	2.089886e-02	7.663755e+00	6.287389e-02	
235	2.099886e-02	7.663756e+00	6.287396e-02	
236	2.109886e-02	7.663755e+00	6.287389e-02	
237	2.119886e-02	7.663756e+00	6.287396e-02	
238	2.129886e-02	7.663755e+00	6.287389e-02	
239	2.139886e-02	7.663756e+00	6.287395e-02	
240	2.149886e-02	7.663755e+00	6.287389e-02	
241	2.159886e-02	7.663756e+00	6.287395e-02	
242	2.169886e-02	7.663755e+00	6.287389e-02	
243	2.179886e-02	7.663756e+00	6.287395e-02	
244	2.189886e-02	7.663755e+00	6.287389e-02	
245	2.199886e-02	7.663756e+00	6.287395e-02	
246	2.209886e-02	7.663755e+00	6.287389e-02	
247	2.219886e-02	7.663756e+00	6.287395e-02	
248	2.229886e-02	7.663755e+00	6.287389e-02	
249	2.239886e-02	7.663756e+00	6.287395e-02	
250	2.249886e-02	7.663755e+00	6.287389e-02	
251	2.259886e-02	7.663756e+00	6.287395e-02	
252	2.269886e-02	7.663755e+00	6.287389e-02	
253	2.279886e-02	7.663756e+00	6.287395e-02	
254	2.289886e-02	7.663755e+00	6.287389e-02	
255	2.299886e-02	7.663756e+00	6.287395e-02	
256	2.309886e-02	7.663755e+00	6.287389e-02	
257	2.319886e-02	7.663756e+00	6.287395e-02	
258	2.329886e-02	7.663755e+00	6.287389e-02	
259	2.339886e-02	7.663756e+00	6.287395e-02	
260	2.349886e-02	7.663755e+00	6.287389e-02	
261	2.359886e-02	7.663756e+00	6.287395e-02	
262	2.369886e-02	7.663755e+00	6.287389e-02	
263	2.379886e-02	7.663756e+00	6.287395e-02	
264	2.389886e-02	7.663755e+00	6.287389e-02	
265	2.399886e-02	7.663756e+00	6.287395e-02	
266	2.409886e-02	7.663755e+00	6.287389e-02	
267	2.419886e-02	7.663756e+00	6.287395e-02	
268	2.429886e-02	7.663755e+00	6.287389e-02	
269	2.439886e-02	7.663756e+00	6.287395e-02	
270	2.449886e-02	7.663755e+00	6.287389e-02	
271	2.459886e-02	7.663756e+00	6.287395e-02	
272	2.469886e-02	7.663755e+00	6.287389e-02	
273	2.479886e-02	7.663756e+00	6.287395e-02	
274	2.489886e-02	7.663755e+00	6.287389e-02	
275	2.499886e-02	7.663756e+00	6.287395e-02	
276	2.509886e-02	7.663755e+00	6.287389e-02	
277	2.519886e-02	7.663756e+00	6.287395e-02	
278	2.529886e-02	7.663755e+00	6.287389e-02	
279	2.539886e-02	7.663756e+00	6.287395e-02	
280	2.549886e-02	7.663755e+00	6.287389e-02	
281	2.559886e-02	7.663756e+00	6.287395e-02	
282	2.569886e-02	7.663755e+00	6.287389e-02	
283	2.579886e-02	7.663756e+00	6.287395e-02	
284	2.589886e-02	7.663755e+00	6.287389e-02	
285	2.599886e-02	7.663756e+00	6.287395e-02	
286	2.609886e-02	7.663755e+00	6.287389e-02	

Index   time            v(diag_pin)     v(mcu_gpio)     
--------------------------------------------------------------------------------
287	2.619886e-02	7.663756e+00	6.287395e-02	
288	2.629886e-02	7.663755e+00	6.287389e-02	
289	2.639886e-02	7.663756e+00	6.287395e-02	
290	2.649886e-02	7.663755e+00	6.287389e-02	
291	2.659886e-02	7.663756e+00	6.287395e-02	
292	2.669886e-02	7.663755e+00	6.287389e-02	
293	2.679886e-02	7.663756e+00	6.287395e-02	
294	2.689886e-02	7.663755e+00	6.287389e-02	
295	2.699886e-02	7.663756e+00	6.287395e-02	
296	2.709886e-02	7.663755e+00	6.287389e-02	
297	2.719886e-02	7.663756e+00	6.287395e-02	
298	2.729886e-02	7.663755e+00	6.287389e-02	
299	2.739886e-02	7.663756e+00	6.287395e-02	
300	2.749886e-02	7.663755e+00	6.287389e-02	
301	2.759886e-02	7.663756e+00	6.287395e-02	
302	2.769886e-02	7.663755e+00	6.287389e-02	
303	2.779886e-02	7.663756e+00	6.287395e-02	
304	2.789886e-02	7.663755e+00	6.287389e-02	
305	2.799886e-02	7.663756e+00	6.287395e-02	
306	2.809886e-02	7.663755e+00	6.287389e-02	
307	2.819886e-02	7.663756e+00	6.287395e-02	
308	2.829886e-02	7.663755e+00	6.287389e-02	
309	2.839886e-02	7.663756e+00	6.287395e-02	
310	2.849886e-02	7.663755e+00	6.287389e-02	
311	2.859886e-02	7.663756e+00	6.287395e-02	
312	2.869886e-02	7.663755e+00	6.287389e-02	
313	2.879886e-02	7.663756e+00	6.287395e-02	
314	2.889886e-02	7.663755e+00	6.287389e-02	
315	2.899886e-02	7.663756e+00	6.287395e-02	
316	2.909886e-02	7.663755e+00	6.287389e-02	
317	2.919886e-02	7.663756e+00	6.287395e-02	
318	2.929886e-02	7.663755e+00	6.287389e-02	
319	2.939886e-02	7.663756e+00	6.287395e-02	
320	2.949886e-02	7.663755e+00	6.287389e-02	
321	2.959886e-02	7.663756e+00	6.287395e-02	
322	2.969886e-02	7.663755e+00	6.287389e-02	
323	2.979886e-02	7.663756e+00	6.287395e-02	
324	2.989886e-02	7.663755e+00	6.287389e-02	
325	2.999886e-02	7.663756e+00	6.287395e-02	
326	3.009886e-02	7.663755e+00	6.287389e-02	
327	3.019886e-02	7.663756e+00	6.287395e-02	
328	3.029886e-02	7.663755e+00	6.287389e-02	
329	3.039886e-02	7.663756e+00	6.287395e-02	
330	3.049886e-02	7.663755e+00	6.287389e-02	
331	3.059886e-02	7.663756e+00	6.287395e-02	
332	3.069886e-02	7.663755e+00	6.287389e-02	
333	3.079886e-02	7.663756e+00	6.287395e-02	
334	3.089886e-02	7.663755e+00	6.287389e-02	
335	3.099886e-02	7.663756e+00	6.287395e-02	
336	3.109886e-02	7.663755e+00	6.287389e-02	
337	3.119886e-02	7.663756e+00	6.287395e-02	
338	3.129886e-02	7.663755e+00	6.287389e-02	
339	3.139886e-02	7.663756e+00	6.287395e-02	
340	3.149886e-02	7.663755e+00	6.287389e-02	
341	3.159886e-02	7.663756e+00	6.287395e-02	
342	3.169886e-02	7.663755e+00	6.287389e-02	
343	3.179886e-02	7.663756e+00	6.287395e-02	
344	3.189886e-02	7.663755e+00	6.287389e-02	

Index   time            v(diag_pin)     v(mcu_gpio)     
--------------------------------------------------------------------------------
345	3.199886e-02	7.663756e+00	6.287395e-02	
346	3.209886e-02	7.663755e+00	6.287389e-02	
347	3.219886e-02	7.663756e+00	6.287395e-02	
348	3.229886e-02	7.663755e+00	6.287389e-02	
349	3.239886e-02	7.663756e+00	6.287395e-02	
350	3.249886e-02	7.663755e+00	6.287389e-02	
351	3.259886e-02	7.663756e+00	6.287395e-02	
352	3.269886e-02	7.663755e+00	6.287389e-02	
353	3.279886e-02	7.663756e+00	6.287395e-02	
354	3.289886e-02	7.663755e+00	6.287389e-02	
355	3.299886e-02	7.663756e+00	6.287395e-02	
356	3.309886e-02	7.663755e+00	6.287389e-02	
357	3.319886e-02	7.663756e+00	6.287395e-02	
358	3.329886e-02	7.663755e+00	6.287389e-02	
359	3.339886e-02	7.663756e+00	6.287395e-02	
360	3.349886e-02	7.663755e+00	6.287389e-02	
361	3.359886e-02	7.663756e+00	6.287395e-02	
362	3.369886e-02	7.663755e+00	6.287389e-02	
363	3.379886e-02	7.663756e+00	6.287395e-02	
364	3.389886e-02	7.663755e+00	6.287390e-02	
365	3.399886e-02	7.663756e+00	6.287395e-02	
366	3.409886e-02	7.663755e+00	6.287390e-02	
367	3.419886e-02	7.663756e+00	6.287395e-02	
368	3.429886e-02	7.663755e+00	6.287390e-02	
369	3.439886e-02	7.663756e+00	6.287395e-02	
370	3.449886e-02	7.663755e+00	6.287390e-02	
371	3.459886e-02	7.663756e+00	6.287395e-02	
372	3.469886e-02	7.663755e+00	6.287390e-02	
373	3.479886e-02	7.663756e+00	6.287395e-02	
374	3.489886e-02	7.663755e+00	6.287390e-02	
375	3.499886e-02	7.663756e+00	6.287395e-02	
376	3.509886e-02	7.663755e+00	6.287390e-02	
377	3.519886e-02	7.663756e+00	6.287395e-02	
378	3.529886e-02	7.663755e+00	6.287390e-02	
379	3.539886e-02	7.663756e+00	6.287395e-02	
380	3.549886e-02	7.663755e+00	6.287390e-02	
381	3.559886e-02	7.663756e+00	6.287395e-02	
382	3.569886e-02	7.663755e+00	6.287390e-02	
383	3.579886e-02	7.663756e+00	6.287395e-02	
384	3.589886e-02	7.663755e+00	6.287390e-02	
385	3.599886e-02	7.663756e+00	6.287395e-02	
386	3.609886e-02	7.663755e+00	6.287390e-02	
387	3.619886e-02	7.663756e+00	6.287395e-02	
388	3.629886e-02	7.663755e+00	6.287390e-02	
389	3.639886e-02	7.663756e+00	6.287395e-02	
390	3.649886e-02	7.663755e+00	6.287390e-02	
391	3.659886e-02	7.663756e+00	6.287395e-02	
392	3.669886e-02	7.663755e+00	6.287390e-02	
393	3.679886e-02	7.663756e+00	6.287395e-02	
394	3.689886e-02	7.663755e+00	6.287390e-02	
395	3.699886e-02	7.663756e+00	6.287395e-02	
396	3.709886e-02	7.663755e+00	6.287390e-02	
397	3.719886e-02	7.663756e+00	6.287395e-02	
398	3.729886e-02	7.663755e+00	6.287390e-02	
399	3.739886e-02	7.663756e+00	6.287395e-02	
400	3.749886e-02	7.663755e+00	6.287390e-02	
401	3.759886e-02	7.663756e+00	6.287395e-02	
402	3.769886e-02	7.663755e+00	6.287390e-02	

Index   time            v(diag_pin)     v(mcu_gpio)     
--------------------------------------------------------------------------------
403	3.779886e-02	7.663756e+00	6.287395e-02	
404	3.789886e-02	7.663755e+00	6.287390e-02	
405	3.799886e-02	7.663755e+00	6.287395e-02	
406	3.809886e-02	7.663755e+00	6.287390e-02	
407	3.819886e-02	7.663755e+00	6.287395e-02	
